
**** 12/25/21 14:56:08 ******* PSpice 17.4.0 (Nov 2018) ******* ID# 0 ********

 ** Profile: "SCHEMATIC1-BodeNew"  [ C:\Users\user\OneDrive\Desktop\Liron\Studies\PSPICE\PspiceAmplifierProject\Amplifier v2-PSpiceFi


 ****     CIRCUIT DESCRIPTION


******************************************************************************




** Creating circuit file "BodeNew.cir" 
** WARNING: THIS AUTOMATICALLY GENERATED FILE MAY BE OVERWRITTEN BY SUBSEQUENT SIMULATIONS

*Libraries: 
* Profile Libraries :
* Local Libraries :
* From [PSPICE NETLIST] section of C:\cds_spb_home\cdssetup\OrCAD_PSpiceTIPSpice_Install\17.4.0\PSpice.ini file:
.lib "nom_pspti.lib" 
.lib "nom.lib" 

*Analysis directives: 
.AC DEC 11 0.1 100G
.OPTIONS ADVCONV
.OPTIONS FILEMODELSEARCH
.PROBE64 V(alias(*)) I(alias(*)) W(alias(*)) D(alias(*)) NOISE(alias(*)) 
.INC "..\SCHEMATIC1.net" 



**** INCLUDING SCHEMATIC1.net ****
* source AMPLIFIER V2
V_V1         N00940 0 DC 0Vdc AC 1Vac 
Q_Q1         N05752 N08093 N04350 QbreakN 
Q_Q2         N06783 N05468 N05176 QbreakN 
R_Rs         N00940 N10230  57  
C_C1         N10230 N04350  1u  
V_V3         N04818 0 5Vdc
R_RE1         N03641 N04350  4.15k  
R_RC2         N06783 N04818  1k  
R_RC1         N05752 N08500  18.9k  
R_RB3         N05468 N04818  340k  
R_RB4         0 N05468  550k  
R_RE2         0 N05176  4k  
C_C2         N03641 N04350  10n  
R_RB1         N08098 N08093  100k  
V_V4         0 N08098 5Vdc
V_V5         0 N03641 5Vdc
R_RB2         0 N08093  100k  
C_C3         N05752 N05468  1u  
C_C4         0 N08093  10n  
V_V6         N08500 0 5Vdc

**** RESUMING BodeNew.cir ****
.END

**** 12/25/21 14:56:08 ******* PSpice 17.4.0 (Nov 2018) ******* ID# 0 ********

 ** Profile: "SCHEMATIC1-BodeNew"  [ C:\Users\user\OneDrive\Desktop\Liron\Studies\PSPICE\PspiceAmplifierProject\Amplifier v2-PSpiceFi


 ****     BJT MODEL PARAMETERS


******************************************************************************




               QbreakN         
               NPN             
       LEVEL    1            
          IS    1.000000E-12 
          BF  100            
          NF    1            
          BR    1            
          NR    1            
         ISS    0            
          RE    0            
          RC    6            
         CJE    0            
         VJE     .75         
         CJC    0            
         VJC     .75         
         MJC     .33         
        XCJC    1            
         CJS    0            
         VJS     .75         
          KF    0            
          AF    1            
          CN    2.42         
           D     .87         


**** 12/25/21 14:56:08 ******* PSpice 17.4.0 (Nov 2018) ******* ID# 0 ********

 ** Profile: "SCHEMATIC1-BodeNew"  [ C:\Users\user\OneDrive\Desktop\Liron\Studies\PSPICE\PspiceAmplifierProject\Amplifier v2-PSpiceFi


 ****     SMALL SIGNAL BIAS SOLUTION       TEMPERATURE =   27.000 DEG C


******************************************************************************



 NODE   VOLTAGE     NODE   VOLTAGE     NODE   VOLTAGE     NODE   VOLTAGE


(N00940)    0.0000 (N03641)   -5.0000 (N04350)   -3.2276 (N04818)    5.0000     

(N05176)    1.6949 (N05468)    2.2084 (N05752)   -2.9908 (N06783)    4.5805     

(N08093)   -2.7139 (N08098)   -5.0000 (N08500)    5.0000 (N10230)    0.0000 




    VOLTAGE SOURCE CURRENTS
    NAME         CURRENT

    V_V1         0.000E+00
    V_V3        -4.277E-04
    V_V4        -2.286E-05
    V_V5        -4.271E-04
    V_V6        -4.228E-04

    TOTAL POWER DISSIPATION   6.50E-03  WATTS



          JOB CONCLUDED

**** 12/25/21 14:56:08 ******* PSpice 17.4.0 (Nov 2018) ******* ID# 0 ********

 ** Profile: "SCHEMATIC1-BodeNew"  [ C:\Users\user\OneDrive\Desktop\Liron\Studies\PSPICE\PspiceAmplifierProject\Amplifier v2-PSpiceFi


 ****     JOB STATISTICS SUMMARY


******************************************************************************



  License check-out time            =      220.11
  Total job time (using Solver 1)   =        1.27
